write to 0x3A ack data: 0x70 
read to 0x3A ack data: 0x00 0x00
write to 0x3A ack data: 0x70 
read to 0x3A ack data: 0x00 0x00
write to 0x3A ack data: 0x70 
read to 0x3A ack data: 0x00 0x00
write to 0x3A ack data: 0x70 
read to 0x3A ack data: 0x00 0x00
write to 0x3A ack data: 0x70 
read to 0x3A ack data: 0x00 0x00
write to 0x3A ack data: 0x70 
read to 0x3A ack data: 0x00 0x00
write to 0x3A ack data: 0x70 
read to 0x3A ack data: 0x00 0x00
write to 0x3A ack data: 0x70 
read to 0x3A ack data: 0x00 0x00
write to 0x3A ack data: 0x70 
read to 0x3A ack data: 0x00 0x00
write to 0x3A ack data: 0x70 
read to 0x3A ack data: 0x00 0x00
write to 0x3A ack data: 0x70 
read to 0x3A ack data: 0x00 0x00
write to 0x3A ack data: 0x70 
read to 0x3A ack data: 0x00 0x00
write to 0x3A ack data: 0x70 
read to 0x3A ack data: 0x00 0x00
write to 0x3A ack data: 0x70 
read to 0x3A ack data: 0x00 0x00
write to 0x3A ack data: 0x70 
read to 0x3A ack data: 0x00 0x00
write to 0x3A ack data: 0x70 
read to 0x3A ack data: 0x00 0x00
write to 0x3A ack data: 0x70 
read to 0x3A ack data: 0x00 0x00
write to 0x3A ack data: 0x70 
read to 0x3A ack data: 0x00 0x00
write to 0x3A ack data: 0x70 
read to 0x3A ack data: 0x00 0x00
write to 0x3A ack data: 0x70 
read to 0x3A ack data: 0x00 0x00
write to 0x3A ack data: 0x70 
read to 0x3A ack data: 0x00 0x00
write to 0x3A ack data: 0x70 
read to 0x3A ack data: 0x00 0x00
write to 0x3A ack data: 0x70 
read to 0x3A ack data: 0x00 0x00
write to 0x3A ack data: 0x70 
read to 0x3A ack data: 0x00 0x00
write to 0x3A ack data: 0x70 
read to 0x3A ack data: 0x00 0x00
write to 0x3A ack data: 0x70 
read to 0x3A ack data: 0x00 0x00
write to 0x54 nak
write to 0x3A ack data: 0x50 
read to 0x3A ack data: 0x04
write to 0x3A ack data: 0x60 0x02 0x21 0x8A 0x8E 0xDA 0x02 0xF9 0x8F 0x3E 0x02 0x00 0x00 
write to 0x3A ack data: 0x70 
read to 0x3A ack data: 0x16 0x02
write to 0x3A ack data: 0x80 
read to 0x3A ack data: 0x03 0xF1 0x60 0xD1 0x6B 0x65 0xB6 0x64 0x2B 0x4F 0x58 0x6F 0x6E 0x9F 0xF2 0x44 0x94 0x19 0xA3 0xC4 0x74 0x7D 0x68 0x50 0x57 0xCE 0x59 0xEA 0xC6 0x10 0xF7 0x30 0xE0 0xA8 0x54 0x19 0xA4 0xC1 0x5A 0x5E 0xDD 0xD1 0xBC 0x21 0x8E 0xE2 0x88 0x09 0x96 0xBA 0x7B 0x4D 0x49 0xEF 0x3B 0x04 0x72 0xC7 0xE1 0xE8 0x4D 0x3F 0xB2 0x4D 0xC4 0xF9 0x74 0x96 0xAD 0xD3 0x65 0x8D 0xE8 0xF7 0x81 0x0B 0xC6 0xA2 0x47 0x87 0xB2 0x11 0xF8 0xB1 0x47 0xA7 0xB3 0x4B 0x8A 0x84 0x5E 0x9F 0xCA 0xC1 0x18 0xC3 0x24 0xB8 0xDF 0x33 0x8E 0x80 0x48 0x2F 0xBD 0x05 0x6A 0xC6 0xDD 0x2F 0xC3 0x01 0x01 0xEA 0x0D 0x3C 0x18 0x8D 0x0C 0x67 0xA9 0xD8 0x02 0x33 0xDB 0xDB 0x45 0x61 0x17 0x58 0xF6 0x39 0x0E 0x5D 0x01 0x00 0x01 0x10 0x00 0xA6 0xDC 0xE8 0xD9 0x86 0xB8 0x57 0x99 0x05 0x2C 0x1F 0xB0 0x49 0x0F 0xD4 0x6A 0x16 0x34 0xEF 0xAA 0xB2 0xBF 0xD3 0xE7 0x0F 0x6D 0x68 0x77 0x5D 0xAF 0x18 0x53 0xFB 0x74 0xF4 0xBA 0xD1 0x3A 0x55 0xBF 0xF6 0x8F 0x8C 0x21 0xDC 0xC1 0xD3 0x72 0x0B 0x47 0x7C 0xEB 0x42 0x59 0x81 0x55 0xED 0x03 0x3B 0x12 0xF6 0xD0 0x5A 0xE7 0x63 0x26 0x0D 0xEF 0xC8 0x2C 0x37 0x0C 0xB9 0x92 0x8F 0xD9 0xED 0x6A 0xF5 0x68 0x02 0x28 0x27 0x10 0x0E 0x8E 0xD9 0x85 0x22 0xF6 0xB1 0x24 0x26 0x99 0xEA 0xA7 0x54 0x76 0x5D 0xF1 0xF0 0x01 0x2A 0xA6 0x00 0x4F 0x67 0x87 0x17 0x9D 0xB5 0xD3 0xE5 0xF1 0x07 0x67 0x74 0xE1 0x6B 0x96 0x6D 0x4B 0xBB 0x32 0xF6 0xE9 0x38 0x28 0x19 0x1C 0xD1 0x75 0x2D 0x99 0x10 0x90 0x15 0x11 0x6F 0xD4 0xED 0x32 0x4E 0x40 0x8A 0x16 0xE6 0xE8 0xA2 0xA9 0x3B 0x5E 0x17 0xA2 0xC0 0x1E 0xE7 0x30 0xA4 0xAA 0xA5 0x01 0xC4 0xF5 0x71 0x12 0xA9 0x7A 0xC8 0x6F 0x81 0x07 0x11 0x0B 0x5E 0x56 0x17 0x72 0xB9 0x2C 0xA1 0x02 0x69 0xFF 0x88 0x6A 0xD0 0xDB 0x03 0x23 0x18 0x46 0xC8 0xAD 0x48 0x1D 0xB3 0xAA 0xB8 0xEE 0xC6 0xF6 0xF2 0x0D 0x73 0x99 0x6D 0xDF 0xBB 0x6E 0x74 0x7A 0x7D 0x71 0x32 0xDA 0xBA 0xA9 0xFC 0xD4 0x67 0x94 0xE2 0x5E 0xA2 0xB2 0x77 0x1D 0x20 0x7A 0x86 0x97 0x50 0x97 0x65 0xED 0x6B 0xFC 0x0F 0x0C 0x68 0x15 0xA6 0x12 0xF7 0xBD 0xE4 0x7E 0x7D 0xD6 0xBB 0xD4 0x44 0xBC 0x42 0x68 0x38 0x77 0xAC 0x27 0xD8 0x3D 0x35 0xDD 0x8C 0x7C 0x9A 0x19 0x29 0x8B 0xBB 0x8D 0x6C 0x09 0x99 0x7A 0xA3 0x2D 0xFC 0xEC 0xB3 0xAF 0xC1 0xD2 0xDE 0x3D 0x43 0xF5 0x7E 0x97 0xCA 0x49 0xAA 0x46 0x82 0x59 0x65 0x4D 0xAE 0x91 0xD4 0xF9 0xD1 0x1F 0xFC 0xBB 0x19 0xD9 0xD9 0xC0 0xE5 0x9C 0xD3 0xB2 0xD4 0x04 0x68 0xB6 0x92 0x81 0x7F 0xD0 0x63 0x05 0xC4 0x20 0x25 0xBD 0x6D 0xFA 0x0B 0x6C 0xE2 0xC8 0xE1 0x92 0xCE 0x5A 0x15 0x1B 0xE2 0xF8 0xFB 0x00 0xE9 0x61 0xAA 0x2B 0xB8 0x69 0x9D 0x10 0xD6 0x2D 0x64 0xB1 0x35 0xA4 0x4B 0x86 0x5D 0xA3 0xDD 0x2D 0x2A 0x19 0x3C 0xFD 0x46 0x28 0x99 0x71 0xA0 0x08 0x22 0x69 0x7C 0x76 0x47 0x53 0x96 0xB4 0xAD 0x67 0x07 0x5E 0x7F 0x00 0x76 0x2D 0x03 0x5D 0x02 0x00 0x00
write to 0x3A ack data: 0x60 0x04 0x7C 0xA1 0xB9 0x91 0xE5 0x83 0xAC 0x98 0xAA 0xD1 0x3B 0x5A 0xC5 0x94 0xB4 0xE1 0x82 0x9E 0x71 0x2E 0x50 0x52 0x8E 0xBC 0xF0 0x1E 0x49 0xD7 0x1A 0x80 0xB8 0x9A 0xBA 0x6D 0x2C 0x78 0x83 0x85 0xB1 0x7F 0x97 0x28 0x05 0x55 0x21 0xB0 0xCB 0x67 0x52 0x62 0xFF 0x2C 0x99 0x14 0xB2 0x61 0xA9 0x3C 0x67 0xF3 0xEB 0x47 0x4E 0x50 0x35 0xE2 0xE8 0x27 0x63 0x65 0xEC 0xCE 0x97 0xC3 0x8C 0xD6 0x39 0x91 0x0C 0x09 0x35 0x54 0x98 0x88 0xC5 0xA8 0xF4 0xB5 0x82 0x2A 0x23 0x97 0x51 0x99 0x08 0x07 0x99 0xAE 0xE8 0xD1 0x40 0xCD 0xDB 0x68 0xCE 0x0A 0x8B 0x88 0xD0 0xE8 0xD6 0x78 0x86 0x29 0xE3 0x8D 0x2F 0x95 0x66 0xAE 0xCB 0x46 0xF9 0xD2 0x37 0xF6 0x4F 0xD2 
write to 0x3A ack data: 0x70 
read to 0x3A ack data: 0x00 0x00
write to 0x3A ack data: 0x70 
read to 0x3A ack data: 0x00 0x00
write to 0x3A ack data: 0x70 
read to 0x3A ack data: 0x00 0x00
write to 0x3A ack data: 0x70 
read to 0x3A ack data: 0x00 0x00
write to 0x3A ack data: 0x70 
read to 0x3A ack data: 0x00 0x00
write to 0x3A ack data: 0x70 
read to 0x3A ack data: 0x00 0x00
write to 0x3A ack data: 0x70 
read to 0x3A ack data: 0x00 0x00
write to 0x3A ack data: 0x70 
read to 0x3A ack data: 0x00 0x00
write to 0x3A ack data: 0x70 
read to 0x3A ack data: 0x00 0x00
write to 0x3A ack data: 0x70 
read to 0x3A ack data: 0x00 0x00
write to 0x3A ack data: 0x70 
read to 0x3A ack data: 0x00 0x00
write to 0x3A ack data: 0x70 
read to 0x3A ack data: 0x00 0x00
write to 0x3A ack data: 0x70 
read to 0x3A ack data: 0x00 0x00
write to 0x3A ack data: 0x70 
read to 0x3A ack data: 0x00 0x00
write to 0x3A ack data: 0x70 
read to 0x3A ack data: 0x00 0x00
write to 0x3A ack data: 0x70 
read to 0x3A ack data: 0x00 0x00
write to 0x3A ack data: 0x70 
read to 0x3A ack data: 0x00 0x00
write to 0x3A ack data: 0x70 
read to 0x3A ack data: 0x00 0x00
write to 0x3A ack data: 0x70 
read to 0x3A ack data: 0x00 0x00
write to 0x3A ack data: 0x70 
read to 0x3A ack data: 0x00 0x00
write to 0x3A ack data: 0x70 
read to 0x3A ack data: 0x00 0x00
write to 0x3A ack data: 0x70 
read to 0x3A ack data: 0x00 0x00
write to 0x3A ack data: 0x70 
read to 0x3A ack data: 0x00 0x00
write to 0x3A ack data: 0x70 
read to 0x3A ack data: 0x00 0x00
write to 0x3A ack data: 0x70 
read to 0x3A ack data: 0x00 0x00
write to 0x3A ack data: 0x70 
read to 0x3A ack data: 0x00 0x00
write to 0x3A ack data: 0x70 
read to 0x3A ack data: 0x00 0x00
write to 0x3A ack data: 0x70 
read to 0x3A ack data: 0x00 0x00
write to 0x3A ack data: 0x70 
read to 0x3A ack data: 0x00 0x00
write to 0x3A ack data: 0x70 
read to 0x3A ack data: 0x00 0x00
write to 0x3A ack data: 0x70 
read to 0x3A ack data: 0x00 0x00
write to 0x3A ack data: 0x70 
read to 0x3A ack data: 0x00 0x00
write to 0x3A ack data: 0x70 
read to 0x3A ack data: 0x00 0x00
write to 0x3A ack data: 0x70 
read to 0x3A ack data: 0x00 0x00
write to 0x3A ack data: 0x70 
read to 0x3A ack data: 0x00 0x00
write to 0x3A ack data: 0x70 
read to 0x3A ack data: 0x00 0x00
write to 0x3A ack data: 0x70 
read to 0x3A ack data: 0x00 0x00
write to 0x3A ack data: 0x70 
read to 0x3A ack data: 0x00 0x00
write to 0x3A ack data: 0x70 
read to 0x3A ack data: 0x00 0x00
write to 0x3A ack data: 0x70 
read to 0x3A ack data: 0x00 0x00
write to 0x3A ack data: 0x70 
read to 0x3A ack data: 0x00 0x00
write to 0x3A ack data: 0x70 
read to 0x3A ack data: 0x00 0x00
write to 0x3A ack data: 0x70 
read to 0x3A ack data: 0x00 0x00
write to 0x3A ack data: 0x70 
read to 0x3A ack data: 0x00 0x00
write to 0x3A ack data: 0x70 
read to 0x3A ack data: 0x00 0x00
write to 0x3A ack data: 0x70 
read to 0x3A ack data: 0x00 0x00
write to 0x3A ack data: 0x70 
read to 0x3A ack data: 0x00 0x00
write to 0x3A ack data: 0x70 
read to 0x3A ack data: 0x00 0x00
write to 0x3A ack data: 0x70 
read to 0x3A ack data: 0x00 0x00
write to 0x3A ack data: 0x70 
read to 0x3A ack data: 0x00 0x00
write to 0x3A ack data: 0x70 
read to 0x3A ack data: 0x00 0x00
write to 0x3A ack data: 0x70 
read to 0x3A ack data: 0x00 0x00
write to 0x3A ack data: 0x70 
read to 0x3A ack data: 0x00 0x00
write to 0x3A ack data: 0x70 
read to 0x3A ack data: 0x00 0x00
write to 0x3A ack data: 0x70 
read to 0x3A ack data: 0x00 0x00
write to 0x3A ack data: 0x70 
read to 0x3A ack data: 0x00 0x00
write to 0x3A ack data: 0x70 
read to 0x3A ack data: 0x00 0x00
write to 0x3A ack data: 0x70 
read to 0x3A ack data: 0x00 0x00
write to 0x3A ack data: 0x70 
read to 0x3A ack data: 0x00 0x00
write to 0x3A ack data: 0x70 
read to 0x3A ack data: 0x00 0x00
write to 0x3A ack data: 0x70 
read to 0x3A ack data: 0x00 0x00
write to 0x3A ack data: 0x70 
read to 0x3A ack data: 0x00 0x00
write to 0x3A ack data: 0x70 
read to 0x3A ack data: 0x00 0x00
write to 0x3A ack data: 0x70 
read to 0x3A ack data: 0x00 0x00
write to 0x3A ack data: 0x70 
read to 0x3A ack data: 0x00 0x00
write to 0x3A ack data: 0x70 
read to 0x3A ack data: 0x00 0x00
write to 0x3A ack data: 0x70 
read to 0x3A ack data: 0x00 0x00
write to 0x3A ack data: 0x70 
read to 0x3A ack data: 0x00 0x00
write to 0x3A ack data: 0x70 
read to 0x3A ack data: 0x00 0x00
write to 0x3A ack data: 0x70 
read to 0x3A ack data: 0x00 0x00
write to 0x3A ack data: 0x70 
read to 0x3A ack data: 0x00 0x00
write to 0x3A ack data: 0x70 
read to 0x3A ack data: 0x00 0x00
write to 0x3A ack data: 0x70 
read to 0x3A ack data: 0x00 0x00
write to 0x3A ack data: 0x70 
read to 0x3A ack data: 0x00 0x00
write to 0x3A ack data: 0x70 
read to 0x3A ack data: 0x00 0x00
write to 0x3A ack data: 0x70 
read to 0x3A ack data: 0x00 0x00
write to 0x3A ack data: 0x70 
read to 0x3A ack data: 0x00 0x00
write to 0x3A ack data: 0x70 
read to 0x3A ack data: 0x21 0x00
write to 0x3A ack data: 0x80 
read to 0x3A ack data: 0x07 0x34 0x38 0x91 0xBC 0x67 0x76 0xB7 0x0C 0x0D 0xDD 0xC2 0xE9 0x17 0xE4 0xA3 0xEC 0x3F 0xFC 0x57 0xD6 0x39 0x56 0xEA 0x3A 0x14 0x6B 0x04 0x2B 0xEB 0x34 0x85 0x79
write to 0x3A ack data: 0x70 
read to 0x3A ack data: 0x11 0x00
write to 0x3A ack data: 0x80 
read to 0x3A ack data: 0x08 0x95 0x16 0xF2 0x60 0x49 0x21 0xBD 0xA4 0x83 0x17 0xAD 0xA6 0x8B 0x69 0xB9 0x95
write to 0x3A ack data: 0x60 0x09 0xFE 0x38 0x8A 0x55 0x18 0xCA 0x9F 0xDE 
write to 0x3A ack data: 0x70 
read to 0x3A ack data: 0x21 0x00
write to 0x3A ack data: 0x80 
read to 0x3A ack data: 0x0A 0x43 0xFB 0x43 0x2C 0xA3 0x83 0x58 0xBF 0x5D 0xF2 0x32 0x50 0xEB 0xC0 0xAB 0x65 0x31 0x6E 0x46 0x9D 0xFF 0xEB 0x4B 0xA4 0x86 0x1F 0xD1 0x41 0xF7 0x70 0xE5 0x65
write to 0x3A ack data: 0x60 0x0B 0xDD 0x81 0xBA 0xAC 0xD3 0xBF 0x9A 0x76 0x75 0x28 0x45 0x6F 0x3F 0x53 0x65 0xE8 0xDA 0x62 0x1E 0x3C 0xA9 0x3E 0x92 0x33 
write to 0x3A ack data: 0x70 
read to 0x3A ack data: 0x00 0x00
write to 0x3A ack data: 0x70 
read to 0x3A ack data: 0x00 0x00
write to 0x3A ack data: 0x70 
read to 0x3A ack data: 0x00 0x00
write to 0x3A ack data: 0x70 
read to 0x3A ack data: 0x00 0x00
write to 0x3A ack data: 0x70 
read to 0x3A ack data: 0x00 0x00
write to 0x3A ack data: 0x70 
read to 0x3A ack data: 0x00 0x00
write to 0x3A ack data: 0x70 
read to 0x3A ack data: 0x00 0x00
write to 0x3A ack data: 0x70 
read to 0x3A ack data: 0x00 0x00
write to 0x3A ack data: 0x70 
read to 0x3A ack data: 0x00 0x00
write to 0x54 nak
write to 0x54 nak
write to 0x54 nak
write to 0x54 nak
write to 0x54 nak
write to 0x54 nak
write to 0x54 nak
write to 0x3A ack data: 0x70 
read to 0x3A ack data: 0x00 0x00
write to 0x3A ack data: 0x70 
read to 0x3A ack data: 0x00 0x00
write to 0x3A ack data: 0x70 
read to 0x3A ack data: 0x00 0x00
write to 0x3A ack data: 0x70 
read to 0x3A ack data: 0x00 0x00
write to 0x3A ack data: 0x70 
read to 0x3A ack data: 0x00 0x00
write to 0x3A ack data: 0x70 
read to 0x3A ack data: 0x00 0x00
write to 0x3A ack data: 0x70 
read to 0x3A ack data: 0x00 0x00
write to 0x3A ack data: 0x70 
read to 0x3A ack data: 0x00 0x00
write to 0x3A ack data: 0x70 
read to 0x3A ack data: 0x00 0x00
write to 0x3A ack data: 0x70 
read to 0x3A ack data: 0x00 0x00
write to 0x54 nak
write to 0x54 nak
write to 0x54 nak
write to 0x54 nak
write to 0x54 nak
write to 0x54 nak
write to 0x54 nak
write to 0x3A ack data: 0x70 
read to 0x3A ack data: 0x00 0x00
write to 0x3A ack data: 0x70 
read to 0x3A ack data: 0x00 0x00
write to 0x3A ack data: 0x70 
read to 0x3A ack data: 0x00 0x00
write to 0x3A ack data: 0x70 
read to 0x3A ack data: 0x00 0x00
write to 0x3A ack data: 0x70 
read to 0x3A ack data: 0x00 0x00
write to 0x3A ack data: 0x70 
read to 0x3A ack data: 0x00 0x00
write to 0x3A ack data: 0x70 
read to 0x3A ack data: 0x00 0x00
write to 0x3A ack data: 0x70 
read to 0x3A ack data: 0x00 0x00
write to 0x3A ack data: 0x70 
read to 0x3A ack data: 0x00 0x00
write to 0x3A ack data: 0x70 
read to 0x3A ack data: 0x00 0x00
write to 0x54 nak
write to 0x54 nak
write to 0x54 nak
write to 0x54 nak
write to 0x54 nak
write to 0x54 nak
write to 0x54 nak
write to 0x3A ack data: 0x70 
read to 0x3A ack data: 0x00 0x00
write to 0x3A ack data: 0x70 
read to 0x3A ack data: 0x00 0x00
write to 0x54 nak
write to 0x54 nak
write to 0x3A ack data: 0x50 
read to 0x3A ack data: 0x04
write to 0x3A ack data: 0x60 0x02 0xA8 0xC4 0xD0 0xAB 0x5C 0x7E 0x21 0xD4 0x02 0x00 0x00 
write to 0x3A ack data: 0x70 
read to 0x3A ack data: 0x16 0x02
write to 0x3A ack data: 0x80 
read to 0x3A ack data: 0x03 0xF1 0x60 0xD1 0x6B 0x65 0xB6 0x64 0x2B 0x4F 0x58 0x6F 0x6E 0x9F 0xF2 0x44 0x94 0x19 0xA3 0xC4 0x74 0x7D 0x68 0x50 0x57 0xCE 0x59 0xEA 0xC6 0x10 0xF7 0x30 0xE0 0xA8 0x54 0x19 0xA4 0xC1 0x5A 0x5E 0xDD 0xD1 0xBC 0x21 0x8E 0xE2 0x88 0x09 0x96 0xBA 0x7B 0x4D 0x49 0xEF 0x3B 0x04 0x72 0xC7 0xE1 0xE8 0x4D 0x3F 0xB2 0x4D 0xC4 0xF9 0x74 0x96 0xAD 0xD3 0x65 0x8D 0xE8 0xF7 0x81 0x0B 0xC6 0xA2 0x47 0x87 0xB2 0x11 0xF8 0xB1 0x47 0xA7 0xB3 0x4B 0x8A 0x84 0x5E 0x9F 0xCA 0xC1 0x18 0xC3 0x24 0xB8 0xDF 0x33 0x8E 0x80 0x48 0x2F 0xBD 0x05 0x6A 0xC6 0xDD 0x2F 0xC3 0x01 0x01 0xEA 0x0D 0x3C 0x18 0x8D 0x0C 0x67 0xA9 0xD8 0x02 0x33 0xDB 0xDB 0x45 0x61 0x17 0x58 0xF6 0x39 0x0E 0x5D 0x01 0x00 0x01 0x10 0x00 0xA6 0xDC 0xE8 0xD9 0x86 0xB8 0x57 0x99 0x05 0x2C 0x1F 0xB0 0x49 0x0F 0xD4 0x6A 0x16 0x34 0xEF 0xAA 0xB2 0xBF 0xD3 0xE7 0x0F 0x6D 0x68 0x77 0x5D 0xAF 0x18 0x53 0xFB 0x74 0xF4 0xBA 0xD1 0x3A 0x55 0xBF 0xF6 0x8F 0x8C 0x21 0xDC 0xC1 0xD3 0x72 0x0B 0x47 0x7C 0xEB 0x42 0x59 0x81 0x55 0xED 0x03 0x3B 0x12 0xF6 0xD0 0x5A 0xE7 0x63 0x26 0x0D 0xEF 0xC8 0x2C 0x37 0x0C 0xB9 0x92 0x8F 0xD9 0xED 0x6A 0xF5 0x68 0x02 0x28 0x27 0x10 0x0E 0x8E 0xD9 0x85 0x22 0xF6 0xB1 0x24 0x26 0x99 0xEA 0xA7 0x54 0x76 0x5D 0xF1 0xF0 0x01 0x2A 0xA6 0x00 0x4F 0x67 0x87 0x17 0x9D 0xB5 0xD3 0xE5 0xF1 0x07 0x67 0x74 0xE1 0x6B 0x96 0x6D 0x4B 0xBB 0x32 0xF6 0xE9 0x38 0x28 0x19 0x1C 0xD1 0x75 0x2D 0x99 0x10 0x90 0x15 0x11 0x6F 0xD4 0xED 0x32 0x4E 0x40 0x8A 0x16 0xE6 0xE8 0xA2 0xA9 0x3B 0x5E 0x17 0xA2 0xC0 0x1E 0xE7 0x30 0xA4 0xAA 0xA5 0x01 0xC4 0xF5 0x71 0x12 0xA9 0x7A 0xC8 0x6F 0x81 0x07 0x11 0x0B 0x5E 0x56 0x17 0x72 0xB9 0x2C 0xA1 0x02 0x69 0xFF 0x88 0x6A 0xD0 0xDB 0x03 0x23 0x18 0x46 0xC8 0xAD 0x48 0x1D 0xB3 0xAA 0xB8 0xEE 0xC6 0xF6 0xF2 0x0D 0x73 0x99 0x6D 0xDF 0xBB 0x6E 0x74 0x7A 0x7D 0x71 0x32 0xDA 0xBA 0xA9 0xFC 0xD4 0x67 0x94 0xE2 0x5E 0xA2 0xB2 0x77 0x1D 0x20 0x7A 0x86 0x97 0x50 0x97 0x65 0xED 0x6B 0xFC 0x0F 0x0C 0x68 0x15 0xA6 0x12 0xF7 0xBD 0xE4 0x7E 0x7D 0xD6 0xBB 0xD4 0x44 0xBC 0x42 0x68 0x38 0x77 0xAC 0x27 0xD8 0x3D 0x35 0xDD 0x8C 0x7C 0x9A 0x19 0x29 0x8B 0xBB 0x8D 0x6C 0x09 0x99 0x7A 0xA3 0x2D 0xFC 0xEC 0xB3 0xAF 0xC1 0xD2 0xDE 0x3D 0x43 0xF5 0x7E 0x97 0xCA 0x49 0xAA 0x46 0x82 0x59 0x65 0x4D 0xAE 0x91 0xD4 0xF9 0xD1 0x1F 0xFC 0xBB 0x19 0xD9 0xD9 0xC0 0xE5 0x9C 0xD3 0xB2 0xD4 0x04 0x68 0xB6 0x92 0x81 0x7F 0xD0 0x63 0x05 0xC4 0x20 0x25 0xBD 0x6D 0xFA 0x0B 0x6C 0xE2 0xC8 0xE1 0x92 0xCE 0x5A 0x15 0x1B 0xE2 0xF8 0xFB 0x00 0xE9 0x61 0xAA 0x2B 0xB8 0x69 0x9D 0x10 0xD6 0x2D 0x64 0xB1 0x35 0xA4 0x4B 0x86 0x5D 0xA3 0xDD 0x2D 0x2A 0x19 0x3C 0xFD 0x46 0x28 0x99 0x71 0xA0 0x08 0x22 0x69 0x7C 0x76 0x47 0x53 0x96 0xB4 0xAD 0x67 0x66 0xF9 0x1F 0x44 0x90 0xCA 0x3D 0xC7 0x02 0x00 0x00
write to 0x3A ack data: 0x60 0x04 0xB4 0x14 0x6B 0x6D 0x7B 0x28 0x4E 0x08 0xF1 0xB0 0x7B 0x73 0x07 0x4F 0x0A 0x9C 0x16 0xC3 0x94 0xC3 0x11 0x67 0x39 0x6D 0xD0 0x3B 0xDA 0xEA 0x86 0xBA 0x71 0x26 0x0B 0x97 0xE3 0x5F 0x47 0x76 0x99 0x6D 0xDD 0x8C 0x8A 0x9F 0x32 0x4D 0x31 0x05 0xF8 0xE6 0x4B 0x9D 0x0A 0xEB 0xF9 0x84 0x55 0x7E 0x05 0x13 0x34 0xE5 0x1C 0xE7 0x24 0x39 0x67 0xE9 0x85 0xB2 0xEF 0xAD 0x73 0xAA 0xB5 0x7B 0x79 0x8E 0x49 0x3E 0xCF 0x3F 0x70 0xF7 0x80 0x35 0xC0 0x74 0x81 0x0D 0x75 0x81 0xC3 0x0C 0xA3 0x1C 0xF3 0x37 0x8A 0xCB 0x19 0x91 0x76 0x11 0xC2 0x78 0x46 0x7C 0x0B 0x2F 0x26 0x8B 0xDE 0xCD 0xEC 0x11 0xCB 0x37 0x67 0x6F 0xF8 0x73 0x71 0xC3 0xDD 0xCC 0x42 0xAA 
write to 0x3A ack data: 0x70 
read to 0x3A ack data: 0x00 0x00
write to 0x3A ack data: 0x70 
read to 0x3A ack data: 0x00 0x00
write to 0x3A ack data: 0x70 
read to 0x3A ack data: 0x00 0x00
write to 0x3A ack data: 0x70 
read to 0x3A ack data: 0x00 0x00
write to 0x3A ack data: 0x70 
read to 0x3A ack data: 0x00 0x00
write to 0x3A ack data: 0x70 
read to 0x3A ack data: 0x00 0x00
write to 0x3A ack data: 0x70 
read to 0x3A ack data: 0x00 0x00
write to 0x3A ack data: 0x70 
read to 0x3A ack data: 0x00 0x00
write to 0x3A ack data: 0x70 
read to 0x3A ack data: 0x00 0x00
write to 0x3A ack data: 0x70 
read to 0x3A ack data: 0x00 0x00
write to 0x3A ack data: 0x70 
read to 0x3A ack data: 0x00 0x00
write to 0x3A ack data: 0x70 
read to 0x3A ack data: 0x00 0x00
write to 0x3A ack data: 0x70 
read to 0x3A ack data: 0x00 0x00
write to 0x3A ack data: 0x70 
read to 0x3A ack data: 0x00 0x00
write to 0x3A ack data: 0x70 
read to 0x3A ack data: 0x00 0x00
write to 0x3A ack data: 0x70 
read to 0x3A ack data: 0x00 0x00
write to 0x3A ack data: 0x70 
read to 0x3A ack data: 0x00 0x00
write to 0x3A ack data: 0x70 
read to 0x3A ack data: 0x00 0x00
write to 0x3A ack data: 0x70 
read to 0x3A ack data: 0x00 0x00
write to 0x3A ack data: 0x70 
read to 0x3A ack data: 0x00 0x00
write to 0x3A ack data: 0x70 
read to 0x3A ack data: 0x00 0x00
write to 0x3A ack data: 0x70 
read to 0x3A ack data: 0x00 0x00
write to 0x3A ack data: 0x70 
read to 0x3A ack data: 0x00 0x00
write to 0x3A ack data: 0x70 
read to 0x3A ack data: 0x00 0x00
write to 0x3A ack data: 0x70 
read to 0x3A ack data: 0x00 0x00
write to 0x3A ack data: 0x70 
read to 0x3A ack data: 0x00 0x00
write to 0x3A ack data: 0x70 
read to 0x3A ack data: 0x00 0x00
write to 0x3A ack data: 0x70 
read to 0x3A ack data: 0x00 0x00
write to 0x3A ack data: 0x70 
read to 0x3A ack data: 0x00 0x00
write to 0x3A ack data: 0x70 
read to 0x3A ack data: 0x00 0x00
write to 0x3A ack data: 0x70 
read to 0x3A ack data: 0x00 0x00
write to 0x3A ack data: 0x70 
read to 0x3A ack data: 0x00 0x00
write to 0x3A ack data: 0x70 
read to 0x3A ack data: 0x00 0x00
write to 0x3A ack data: 0x70 
read to 0x3A ack data: 0x00 0x00
write to 0x3A ack data: 0x70 
read to 0x3A ack data: 0x00 0x00
write to 0x3A ack data: 0x70 
read to 0x3A ack data: 0x00 0x00
write to 0x3A ack data: 0x70 
read to 0x3A ack data: 0x00 0x00
write to 0x3A ack data: 0x70 
read to 0x3A ack data: 0x00 0x00
write to 0x3A ack data: 0x70 
read to 0x3A ack data: 0x00 0x00
write to 0x3A ack data: 0x70 
read to 0x3A ack data: 0x00 0x00
write to 0x3A ack data: 0x70 
read to 0x3A ack data: 0x00 0x00
write to 0x3A ack data: 0x70 
read to 0x3A ack data: 0x00 0x00
write to 0x3A ack data: 0x70 
read to 0x3A ack data: 0x00 0x00
write to 0x3A ack data: 0x70 
read to 0x3A ack data: 0x00 0x00
write to 0x3A ack data: 0x70 
read to 0x3A ack data: 0x00 0x00
write to 0x3A ack data: 0x70 
read to 0x3A ack data: 0x00 0x00
write to 0x3A ack data: 0x70 
read to 0x3A ack data: 0x00 0x00
write to 0x3A ack data: 0x70 
read to 0x3A ack data: 0x00 0x00
write to 0x3A ack data: 0x70 
read to 0x3A ack data: 0x00 0x00
write to 0x3A ack data: 0x70 
read to 0x3A ack data: 0x00 0x00
write to 0x3A ack data: 0x70 
read to 0x3A ack data: 0x00 0x00
write to 0x3A ack data: 0x70 
read to 0x3A ack data: 0x00 0x00
write to 0x3A ack data: 0x70 
read to 0x3A ack data: 0x00 0x00
write to 0x3A ack data: 0x70 
read to 0x3A ack data: 0x00 0x00
write to 0x3A ack data: 0x70 
read to 0x3A ack data: 0x00 0x00
write to 0x3A ack data: 0x70 
read to 0x3A ack data: 0x00 0x00
write to 0x3A ack data: 0x70 
read to 0x3A ack data: 0x00 0x00
write to 0x3A ack data: 0x70 
read to 0x3A ack data: 0x00 0x00
write to 0x3A ack data: 0x70 
read to 0x3A ack data: 0x00 0x00
write to 0x3A ack data: 0x70 
read to 0x3A ack data: 0x00 0x00
write to 0x3A ack data: 0x70 
read to 0x3A ack data: 0x00 0x00
write to 0x3A ack data: 0x70 
read to 0x3A ack data: 0x00 0x00
write to 0x3A ack data: 0x70 
read to 0x3A ack data: 0x00 0x00
write to 0x3A ack data: 0x70 
read to 0x3A ack data: 0x00 0x00
write to 0x3A ack data: 0x70 
read to 0x3A ack data: 0x00 0x00
write to 0x3A ack data: 0x70 
read to 0x3A ack data: 0x00 0x00
write to 0x3A ack data: 0x70 
read to 0x3A ack data: 0x00 0x00
write to 0x3A ack data: 0x70 
read to 0x3A ack data: 0x00 0x00
write to 0x3A ack data: 0x70 
read to 0x3A ack data: 0x00 0x00
write to 0x3A ack data: 0x70 
read to 0x3A ack data: 0x00 0x00
write to 0x3A ack data: 0x70 
read to 0x3A ack data: 0x00 0x00
write to 0x3A ack data: 0x70 
read to 0x3A ack data: 0x00 0x00
write to 0x3A ack data: 0x70 
read to 0x3A ack data: 0x00 0x00
write to 0x3A ack data: 0x70 
read to 0x3A ack data: 0x00 0x00
write to 0x3A ack data: 0x70 
read to 0x3A ack data: 0x00 0x00
write to 0x3A ack data: 0x70 
read to 0x3A ack data: 0x21 0x00
write to 0x3A ack data: 0x80 
read to 0x3A ack data: 0x07 0xF8 0xE7 0x5E 0xC3 0x7C 0xFB 0x53 0x01 0xDA 0x75 0xFE 0xDF 0x38 0x30 0xB0 0x2C 0x1D 0x68 0xEC 0x10 0x7F 0x9D 0x46 0x77 0xFB 0x4C 0xFC 0x4E 0xD6 0x42 0xA9 0x0B
write to 0x3A ack data: 0x70 
read to 0x3A ack data: 0x11 0x00
write to 0x3A ack data: 0x80 
read to 0x3A ack data: 0x08 0x97 0xBD 0x4B 0x3E 0xA1 0x05 0xFA 0xF5 0xB7 0x9C 0x8F 0xA4 0xC4 0x35 0xF2 0x71
write to 0x3A ack data: 0x60 0x09 0xDF 0x9E 0x2A 0xDD 0xB5 0xBD 0xA8 0x21 
write to 0x3A ack data: 0x70 
read to 0x3A ack data: 0x21 0x00
write to 0x3A ack data: 0x80 
read to 0x3A ack data: 0x0A 0x2B 0x2C 0x0E 0x90 0xDB 0x75 0xF8 0x7E 0xCC 0xA3 0xB2 0x56 0x3F 0xCB 0x6B 0x90 0x81 0xC2 0x80 0xE5 0x72 0x51 0x45 0xE4 0x29 0x8B 0x06 0x47 0xF3 0x03 0x36 0xA9
write to 0x3A ack data: 0x60 0x0B 0x35 0x24 0x60 0x7D 0x74 0x55 0xAB 0x79 0xAA 0xFA 0x15 0x31 0xAA 0x84 0xA9 0x1B 0x33 0x5D 0xD4 0x5F 0x1D 0x10 0x56 0x6D 
write to 0x3A ack data: 0x70 
read to 0x3A ack data: 0x00 0x00
write to 0x3A ack data: 0x70 
read to 0x3A ack data: 0x00 0x00
write to 0x3A ack data: 0x70 
read to 0x3A ack data: 0x00 0x00
write to 0x3A ack data: 0x70 
read to 0x3A ack data: 0x00 0x00
write to 0x3A ack data: 0x70 
read to 0x3A ack data: 0x00 0x00
write to 0x3A ack data: 0x70 
read to 0x3A ack data: 0x00 0x00
write to 0x3A ack data: 0x70 
read to 0x3A ack data: 0x00 0x00
write to 0x3A ack data: 0x70 
read to 0x3A ack data: 0x00 0x00
write to 0x3A ack data: 0x70 
read to 0x3A ack data: 0x00 0x00
write to 0x3A ack data: 0x70 
read to 0x3A ack data: 0x00 0x00
write to 0x3A ack data: 0x70 
read to 0x3A ack data: 0x00 0x00
write to 0x3A ack data: 0x70 
read to 0x3A ack data: 0x00 0x00
write to 0x3A ack data: 0x70 
read to 0x3A ack data: 0x00 0x00
write to 0x3A ack data: 0x70 
read to 0x3A ack data: 0x00 0x00
write to 0x3A ack data: 0x70 
read to 0x3A ack data: 0x00 0x00
write to 0x3A ack data: 0x70 
read to 0x3A ack data: 0x00 0x00
write to 0x3A ack data: 0x70 
read to 0x3A ack data: 0x00 0x00
write to 0x3A ack data: 0x70 
read to 0x3A ack data: 0x00 0x00
write to 0x3A ack data: 0x70 
read to 0x3A ack data: 0x00 0x00
write to 0x3A ack data: 0x70 
read to 0x3A ack data: 0x00 0x00
write to 0x3A ack data: 0x70 
read to 0x3A ack data: 0x00 0x00
write to 0x3A ack data: 0x70 
read to 0x3A ack data: 0x00 0x00
write to 0x3A ack data: 0x70 
read to 0x3A ack data: 0x00 0x00
write to 0x3A ack data: 0x70 
read to 0x3A ack data: 0x00 0x00
write to 0x3A ack data: 0x70 
read to 0x3A ack data: 0x00 0x00
write to 0x3A ack data: 0x70 
read to 0x3A ack data: 0x00 0x00
write to 0x3A ack data: 0x70 
read to 0x3A ack data: 0x00 0x00
write to 0x3A ack data: 0x70 
read to 0x3A ack data: 0x00 0x00
write to 0x3A ack data: 0x70 
read to 0x3A ack data: 0x00 0x00
write to 0x3A ack data: 0x70 
read to 0x3A ack data: 0x00 0x00
write to 0x3A ack data: 0x70 
read to 0x3A ack data: 0x00 0x00
write to 0x3A ack data: 0x70 
read to 0x3A ack data: 0x00 0x00
write to 0x3A ack data: 0x70 
read to 0x3A ack data: 0x00 0x00
write to 0x3A ack data: 0x70 
read to 0x3A ack data: 0x00 0x00
write to 0x3A ack data: 0x70 
read to 0x3A ack data: 0x00 0x00
write to 0x3A ack data: 0x70 
read to 0x3A ack data: 0x00 0x00
write to 0x3A ack data: 0x70 
read to 0x3A ack data: 0x00 0x00
write to 0x3A ack data: 0x70 
read to 0x3A ack data: 0x00 0x00
write to 0x3A ack data: 0x70 
read to 0x3A ack data: 0x00 0x00
write to 0x3A ack data: 0x70 
read to 0x3A ack data: 0x00 0x00
write to 0x3A ack data: 0x70 
read to 0x3A ack data: 0x00 0x00

